
T0BAC 000:061 SEGGER J-Link V6.10i Log File (0001ms, 0032ms total)
T0BAC 000:061 DLL Compiled: Oct 25 2016 19:31:51 (0001ms, 0032ms total)
T0BAC 000:061 Logging started @ 2020-08-26 10:33 (0001ms, 0032ms total)
T0BAC 000:062 JLINK_SetWarnOutHandler(...) (0000ms, 0032ms total)
T0BAC 000:062 JLINK_OpenEx(...)
Firmware: J-Link V9 compiled Oct  6 2017 16:38:28
Hardware: V9.20
Feature(s): RDI, GDB, FlashDL, FlashBP, JFlashWEBSRV Webserver running on local port 19080 (0013ms, 0045ms total)
T0BAC 000:062   returns O.K. (0013ms, 0045ms total)
T0BAC 000:075 JLINK_SetErrorOutHandler(...) (0000ms, 0045ms total)
T0BAC 000:075 JLINK_ExecCommand("ProjectFile = "E:\Wplan\WogeeDCcharger\UCOS\JLinkSettings.ini"", ...).   returns 0x00 (0111ms, 0156ms total)
T0BAC 000:186 JLINK_ExecCommand("Device = LPC1778", ...). Device "LPC1778" selected.  returns 0x00 (0000ms, 0156ms total)
T0BAC 000:187 JLINK_ExecCommand("DisableConnectionTimeout", ...).   returns 0x01 (0000ms, 0156ms total)
T0BAC 000:187 JLINK_GetHardwareVersion()  returns 0x16760 (0000ms, 0156ms total)
T0BAC 000:187 JLINK_GetDLLVersion()  returns 61009 (0000ms, 0156ms total)
T0BAC 000:187 JLINK_GetFirmwareString(...) (0000ms, 0156ms total)
T0BAC 000:187 JLINK_GetDLLVersion()  returns 61009 (0000ms, 0156ms total)
T0BAC 000:187 JLINK_GetCompileDateTime() (0000ms, 0156ms total)
T0BAC 000:187 JLINK_GetFirmwareString(...) (0000ms, 0156ms total)
T0BAC 000:187 JLINK_GetHardwareVersion()  returns 0x16760 (0000ms, 0156ms total)
T0BAC 000:187 JLINK_TIF_Select(JLINKARM_TIF_SWD)  returns 0x00 (0000ms, 0156ms total)
T0BAC 000:187 JLINK_SetSpeed(5000) (0000ms, 0156ms total)
T0BAC 000:187 JLINK_GetId() >0x108 TIF>Found SWD-DP with ID 0x2BA01477 >0x0D TIF> >0x28 TIF> >0x0D TIF> >0x28 TIF> >0x0D TIF> >0x28 TIF> >0x0D TIF> >0x28 TIF> >0x0D TIF> >0x21 TIF> >0x0D TIF> >0x28 TIF> >0x0D TIF> >0x28 TIF> >0x0D TIF> >0x21 TIF> >0x0D TIF> >0x21 TIF> >0x0D TIF> >0x21 TIF>AP-IDR: 0x24770011, Type: AHB-AP >0x0D TIF> >0x28 TIF> >0x0D TIF> >0x28 TIF> >0x0D TIF> >0x28 TIF> >0x0D TIF> >0x21 TIF> >0x0D TIF> >0x21 TIF> >0x0D TIF> >0x28 TIF> >0x0D TIF> >0x21 TIF> >0x0D TIF> >0x21 TIF>
Found Cortex-M3 r2p0, Little endian. -- CPU_ReadMem(4 bytes @ 0xE000EDF0) -- CPU_WriteMem(4 bytes @ 0xE000EDF0) -- CPU_ReadMem(4 bytes @ 0xE0002000)FPUnit: 6 code (BP) slots and 2 literal slots -- CPU_ReadMem(4 bytes @ 0xE000EDFC) -- CPU_WriteMem(4 bytes @ 0xE000EDFC) -- CPU_ReadMem(4 bytes @ 0xE0001000) -- CPU_WriteMem(4 bytes @ 0xE0001000) -- CPU_ReadMem(4 bytes @ 0xE000ED88) -- CPU_WriteMem(4 bytes @ 0xE000ED88) -- CPU_ReadMem(4 bytes @ 0xE000ED88) -- CPU_WriteMem(4 bytes @ 0xE000ED88)
CoreSight components:ROMTbl 0 @ E00FF000 -- CPU_ReadMem(16 bytes @ 0xE00FF000) -- CPU_ReadMem(16 bytes @ 0xE000EFF0) -- CPU_ReadMem(16 bytes @ 0xE000EFE0)ROMTbl 0 [0]: FFF0F000, CID: B105E00D, PID: 002BB000 SCS -- CPU_ReadMem(16 bytes @ 0xE0001FF0) -- CPU_ReadMem(16 bytes @ 0xE0001FE0)ROMTbl 0 [1]: FFF02000, CID: B105E00D, PID: 002BB002 DWT -- CPU_ReadMem(16 bytes @ 0xE0002FF0) -- CPU_ReadMem(16 bytes @ 0xE0002FE0)ROMTbl 0 [2]: FFF03000, CID: B105E00D, PID: 002BB003 FPB
 -- CPU_ReadMem(16 bytes @ 0xE0000FF0) -- CPU_ReadMem(16 bytes @ 0xE0000FE0)ROMTbl 0 [3]: FFF01000, CID: B105E00D, PID: 002BB001 ITM -- CPU_ReadMem(16 bytes @ 0xE00FF010) -- CPU_ReadMem(16 bytes @ 0xE0040FF0) -- CPU_ReadMem(16 bytes @ 0xE0040FE0)ROMTbl 0 [4]: FFF41000, CID: B105900D, PID: 002BB923 TPIU-Lite -- CPU_ReadMem(16 bytes @ 0xE0041FF0) -- CPU_ReadMem(16 bytes @ 0xE0041FE0)ROMTbl 0 [5]: FFF42000, CID: B105900D, PID: 002BB924 ETM-M3 >0x0D TIF> >0x21 TIF>  returns 0x2BA01477
 (0014ms, 0170ms total)
T0BAC 000:201 JLINK_GetDLLVersion()  returns 61009 (0000ms, 0170ms total)
T0BAC 000:201 JLINK_CORE_GetFound()  returns 0x30000FF (0000ms, 0170ms total)
T0BAC 000:201 JLINK_GetDebugInfo(0x100) -- Value=0xE00FF000  returns 0x00 (0000ms, 0170ms total)
T0BAC 000:201 JLINK_GetDebugInfo(0x100) -- Value=0xE00FF000  returns 0x00 (0000ms, 0170ms total)
T0BAC 000:201 JLINK_GetDebugInfo(0x101) -- Value=0xE0041000  returns 0x00 (0000ms, 0170ms total)
T0BAC 000:201 JLINK_GetDebugInfo(0x102) -- Value=0x00000000  returns 0x00 (0000ms, 0170ms total)
T0BAC 000:201 JLINK_GetDebugInfo(0x103) -- Value=0xE0040000  returns 0x00 (0000ms, 0170ms total)
T0BAC 000:201 JLINK_GetDebugInfo(0x104) -- Value=0xE0000000  returns 0x00 (0000ms, 0170ms total)
T0BAC 000:201 JLINK_GetDebugInfo(0x105) -- Value=0xE0001000  returns 0x00 (0000ms, 0170ms total)
T0BAC 000:201 JLINK_GetDebugInfo(0x106) -- Value=0xE0002000  returns 0x00 (0000ms, 0170ms total)
T0BAC 000:201 JLINK_GetDebugInfo(0x107) -- Value=0xE000E000  returns 0x00 (0000ms, 0170ms total)
T0BAC 000:201 JLINK_GetDebugInfo(0x10C) -- Value=0xE000EDF0  returns 0x00 (0000ms, 0170ms total)
T0BAC 000:201 JLINK_ReadMemU32(0xE000ED00, 0x0001 Items, ...) -- CPU is running -- CPU_ReadMem(4 bytes @ 0xE000ED00) - Data: 30 C2 2F 41  returns 0x01 (0001ms, 0171ms total)
T0BAC 000:202 JLINK_SetResetType(JLINKARM_RESET_TYPE_NORMAL)  returns JLINKARM_RESET_TYPE_HALT_WP (0000ms, 0171ms total)
T0BAC 000:202 JLINK_Reset() -- CPU is running -- CPU_WriteMem(4 bytes @ 0xE000EDF0) -- CPU is running -- CPU_WriteMem(4 bytes @ 0xE000EDFC) >0x35 TIF> -- CPU is running -- CPU_WriteMem(4 bytes @ 0xE000ED0C) -- CPU is running -- CPU_ReadMem(4 bytes @ 0xE000EDF0) -- CPU is running -- CPU_ReadMem(4 bytes @ 0xE000EDF0) -- CPU is running -- CPU_WriteMem(4 bytes @ 0xE000EDF0) -- CPU is running -- CPU_WriteMem(4 bytes @ 0xE000EDFC) -- CPU is running -- CPU_ReadMem(4 bytes @ 0xE000EDF0)
 -- CPU_WriteMem(4 bytes @ 0xE000EDFC) -- CPU_WriteMem(4 bytes @ 0xE000EDFC) -- CPU_WriteMem(4 bytes @ 0xE000EDFC) -- CPU_WriteMem(4 bytes @ 0xE000EDFC) -- CPU_WriteMem(4 bytes @ 0xE000EDFC) -- CPU_WriteMem(4 bytes @ 0xE0001050) -- CPU_WriteMem(4 bytes @ 0xE0001054) -- CPU_WriteMem(4 bytes @ 0xE0001058) -- CPU_ReadMem(4 bytes @ 0xE0001000) -- CPU_WriteMem(4 bytes @ 0xE000EDFC) -- CPU_WriteMem(4 bytes @ 0xE0001058) -- CPU_ReadMem(4 bytes @ 0x00000004) -- CPU_ReadMem(4 bytes @ 0xE0002000)
 -- CPU_ReadMem(4 bytes @ 0xE0002008) -- CPU_ReadMem(4 bytes @ 0xE000200C) -- CPU_ReadMem(4 bytes @ 0xE0002010) -- CPU_ReadMem(4 bytes @ 0xE0002014) -- CPU_ReadMem(4 bytes @ 0xE0002018) -- CPU_ReadMem(4 bytes @ 0xE000201C) -- CPU_WriteMem(4 bytes @ 0xE0002000) -- CPU_WriteMem(4 bytes @ 0xE0002008) -- CPU_WriteMem(4 bytes @ 0xE000200C) -- CPU_WriteMem(4 bytes @ 0xE0002010) -- CPU_WriteMem(4 bytes @ 0xE0002014) -- CPU_WriteMem(4 bytes @ 0xE0002018) -- CPU_WriteMem(4 bytes @ 0xE000201C)
 -- CPU_ReadMem(4 bytes @ 0xE0001000) -- CPU_ReadMem(4 bytes @ 0x400FC040) -- CPU_WriteMem(4 bytes @ 0xE0002000) -- CPU_WriteMem(4 bytes @ 0xE0002008) -- CPU_WriteMem(4 bytes @ 0xE000200C) -- CPU_WriteMem(4 bytes @ 0xE0002010) -- CPU_WriteMem(4 bytes @ 0xE0002014) -- CPU_WriteMem(4 bytes @ 0xE0002018) -- CPU_WriteMem(4 bytes @ 0xE000201C) -- CPU_WriteMem(4 bytes @ 0xE0002000) -- CPU_ReadMem(4 bytes @ 0xE000EDFC) -- CPU_ReadMem(4 bytes @ 0xE0001000) (0231ms, 0402ms total)
T0BAC 000:433 JLINK_ReadReg(R15 (PC))  returns 0x000000F8 (0000ms, 0402ms total)
T0BAC 000:433 JLINK_ReadReg(XPSR)  returns 0x61000000 (0000ms, 0402ms total)
T0BAC 000:433 JLINK_Halt()  returns 0x00 (0000ms, 0402ms total)
T0BAC 000:433 JLINK_IsHalted()  returns TRUE (0000ms, 0402ms total)
T0BAC 000:433 JLINK_ReadMemU32(0xE000EDF0, 0x0001 Items, ...) -- CPU_ReadMem(4 bytes @ 0xE000EDF0) - Data: 03 00 03 00  returns 0x01 (0000ms, 0402ms total)
T0BAC 000:433 JLINK_WriteU32(0xE000EDF0, 0xA05F0003) -- CPU_WriteMem(4 bytes @ 0xE000EDF0)  returns 0x00 (0001ms, 0403ms total)
T0BAC 000:434 JLINK_WriteU32(0xE000EDFC, 0x01000000) -- CPU_WriteMem(4 bytes @ 0xE000EDFC)  returns 0x00 (0000ms, 0403ms total)
T0BAC 000:434 JLINK_GetHWStatus(...)  returns 0x00 (0000ms, 0403ms total)
T0BAC 000:434 JLINK_GetNumBPUnits(Type = 0xFFFFFF00)  returns 0x06 (0000ms, 0403ms total)
T0BAC 000:434 JLINK_GetNumBPUnits(Type = 0xF0)  returns 0x2000 (0000ms, 0403ms total)
T0BAC 000:434 JLINK_GetNumWPUnits()  returns 0x04 (0000ms, 0403ms total)
T0BAC 000:434 JLINK_GetSpeed()  returns 0xFA0 (0000ms, 0403ms total)
T0BAC 000:434 JLINK_ReadMemU32(0xE000E004, 0x0001 Items, ...) -- CPU_ReadMem(4 bytes @ 0xE000E004) - Data: 01 00 00 00  returns 0x01 (0001ms, 0404ms total)
T0BAC 000:435 JLINK_ReadMemU32(0xE000E004, 0x0001 Items, ...) -- CPU_ReadMem(4 bytes @ 0xE000E004) - Data: 01 00 00 00  returns 0x01 (0000ms, 0404ms total)
T0BAC 000:435 JLINK_WriteMem(0xE0001000, 0x001C Bytes, ...) - Data: 01 00 00 00 00 00 00 00 00 00 00 00 00 00 00 00 ... -- CPU_WriteMem(28 bytes @ 0xE0001000)  returns 0x1C (0001ms, 0405ms total)
T0BAC 000:436 JLINK_ReadMem (0xE0001000, 0x001C Bytes, ...) -- CPU_ReadMem(28 bytes @ 0xE0001000) - Data: 01 00 00 40 00 00 00 00 00 00 00 00 00 00 00 00 ...  returns 0x00 (0001ms, 0406ms total)
T0BAC 000:437 JLINK_ReadReg(R15 (PC))  returns 0x000000F8 (0000ms, 0406ms total)
T0BAC 000:437 JLINK_ReadReg(XPSR)  returns 0x61000000 (0000ms, 0406ms total)
T0BAC 000:457 JLINK_WriteU8(0x400FC040, 0x01) -- CPU_WriteMem(1 bytes @ 0x400FC040)  returns 0x00 (0000ms, 0406ms total)
T0BAC 000:524 JLINK_SetResetType(JLINKARM_RESET_TYPE_NORMAL)  returns JLINKARM_RESET_TYPE_HALT_WP (0000ms, 0406ms total)
T0BAC 000:524 JLINK_Reset() -- CPU_WriteMem(4 bytes @ 0xE000EDF0) -- CPU_WriteMem(4 bytes @ 0xE000EDFC) >0x35 TIF> -- CPU_WriteMem(4 bytes @ 0xE000ED0C) -- CPU_ReadMem(4 bytes @ 0xE000EDF0) -- CPU_ReadMem(4 bytes @ 0xE000EDF0) -- CPU_WriteMem(4 bytes @ 0xE000EDF0) -- CPU_WriteMem(4 bytes @ 0xE000EDFC) -- CPU is running -- CPU_ReadMem(4 bytes @ 0xE000EDF0) -- CPU_WriteMem(4 bytes @ 0xE000EDFC) -- CPU_WriteMem(4 bytes @ 0xE000EDFC) -- CPU_WriteMem(4 bytes @ 0xE000EDFC) -- CPU_WriteMem(4 bytes @ 0xE000EDFC)
 -- CPU_WriteMem(4 bytes @ 0xE000EDFC) -- CPU_WriteMem(4 bytes @ 0xE0001050) -- CPU_WriteMem(4 bytes @ 0xE0001054) -- CPU_WriteMem(4 bytes @ 0xE0001058) -- CPU_ReadMem(4 bytes @ 0xE0001000) -- CPU_WriteMem(4 bytes @ 0xE000EDFC) -- CPU_WriteMem(4 bytes @ 0xE0001058) -- CPU_ReadMem(4 bytes @ 0x00000004) -- CPU_ReadMem(4 bytes @ 0xE0002000) -- CPU_ReadMem(4 bytes @ 0xE0002008) -- CPU_ReadMem(4 bytes @ 0xE000200C) -- CPU_ReadMem(4 bytes @ 0xE0002010) -- CPU_ReadMem(4 bytes @ 0xE0002014)
 -- CPU_ReadMem(4 bytes @ 0xE0002018) -- CPU_ReadMem(4 bytes @ 0xE000201C) -- CPU_WriteMem(4 bytes @ 0xE0002000) -- CPU_WriteMem(4 bytes @ 0xE0002008) -- CPU_WriteMem(4 bytes @ 0xE000200C) -- CPU_WriteMem(4 bytes @ 0xE0002010) -- CPU_WriteMem(4 bytes @ 0xE0002014) -- CPU_WriteMem(4 bytes @ 0xE0002018) -- CPU_WriteMem(4 bytes @ 0xE000201C) -- CPU_ReadMem(4 bytes @ 0xE0001000) -- CPU_ReadMem(4 bytes @ 0x400FC040) -- CPU_WriteMem(4 bytes @ 0xE0002000) -- CPU_WriteMem(4 bytes @ 0xE0002008)
 -- CPU_WriteMem(4 bytes @ 0xE000200C) -- CPU_WriteMem(4 bytes @ 0xE0002010) -- CPU_WriteMem(4 bytes @ 0xE0002014) -- CPU_WriteMem(4 bytes @ 0xE0002018) -- CPU_WriteMem(4 bytes @ 0xE000201C) -- CPU_WriteMem(4 bytes @ 0xE0002000) -- CPU_ReadMem(4 bytes @ 0xE000EDFC) -- CPU_ReadMem(4 bytes @ 0xE0001000) (0232ms, 0638ms total)
T0BAC 000:756 JLINK_ReadReg(R15 (PC))  returns 0x000000F8 (0000ms, 0638ms total)
T0BAC 000:756 JLINK_ReadReg(XPSR)  returns 0x61000000 (0000ms, 0638ms total)
T0BAC 000:763 JLINK_ReadMem (0x000000F8, 0x003C Bytes, ...) -- CPU_ReadMem(128 bytes @ 0x000000C0) -- Updating C cache (128 bytes @ 0x000000C0) -- Read from C cache (60 bytes @ 0x000000F8) - Data: 05 48 80 47 05 48 00 47 FE E7 FE E7 FE E7 FE E7 ...  returns 0x00 (0001ms, 0639ms total)
T3324 002:533 JLINK_SetBPEx(Addr = 0x00004810, Type = 0xFFFFFFF2)  returns 0x00000001 (0000ms, 0639ms total)
T3324 002:533 JLINK_Go() -- CPU_WriteMem(4 bytes @ 0xE0002000) -- CPU_ReadMem(4 bytes @ 0xE0001000) -- CPU_WriteMem(4 bytes @ 0xE0002008) -- CPU_WriteMem(4 bytes @ 0xE000200C) -- CPU_WriteMem(4 bytes @ 0xE0002010) -- CPU_WriteMem(4 bytes @ 0xE0002014) -- CPU_WriteMem(4 bytes @ 0xE0002018) -- CPU_WriteMem(4 bytes @ 0xE000201C) -- CPU_WriteMem(4 bytes @ 0xE0001004) (0002ms, 0641ms total)
T3324 002:636 JLINK_IsHalted()  returns TRUE (0001ms, 0642ms total)
T3324 002:637 JLINK_Halt()  returns 0x00 (0001ms, 0642ms total)
T3324 002:638 JLINK_IsHalted()  returns TRUE (0000ms, 0642ms total)
T3324 002:638 JLINK_IsHalted()  returns TRUE (0000ms, 0642ms total)
T3324 002:638 JLINK_IsHalted()  returns TRUE (0000ms, 0642ms total)
T3324 002:638 JLINK_ReadReg(R15 (PC))  returns 0x00004810 (0000ms, 0642ms total)
T3324 002:638 JLINK_ReadReg(XPSR)  returns 0x61000000 (0000ms, 0642ms total)
T3324 002:638 JLINK_ClrBPEx(BPHandle = 0x00000001)  returns 0x00 (0000ms, 0642ms total)
T3324 002:638 JLINK_ReadMemU32(0xE000ED30, 0x0001 Items, ...) -- CPU_ReadMem(4 bytes @ 0xE000ED30) - Data: 02 00 00 00  returns 0x01 (0000ms, 0642ms total)
T3324 002:638 JLINK_ReadMemU32(0xE0001028, 0x0001 Items, ...) -- CPU_ReadMem(4 bytes @ 0xE0001028) - Data: 00 00 00 00  returns 0x01 (0001ms, 0643ms total)
T3324 002:639 JLINK_ReadMemU32(0xE0001038, 0x0001 Items, ...) -- CPU_ReadMem(4 bytes @ 0xE0001038) - Data: 00 02 00 00  returns 0x01 (0000ms, 0643ms total)
T3324 002:639 JLINK_ReadMemU32(0xE0001048, 0x0001 Items, ...) -- CPU_ReadMem(4 bytes @ 0xE0001048) - Data: 00 00 00 00  returns 0x01 (0000ms, 0643ms total)
T3324 002:639 JLINK_ReadMemU32(0xE0001058, 0x0001 Items, ...) -- CPU_ReadMem(4 bytes @ 0xE0001058) - Data: 00 00 00 01  returns 0x01 (0000ms, 0643ms total)
T3324 002:639 JLINK_ReadReg(R0)  returns 0x00004811 (0000ms, 0643ms total)
T3324 002:639 JLINK_ReadReg(R1)  returns 0x100034A0 (0000ms, 0643ms total)
T3324 002:640 JLINK_ReadReg(R2)  returns 0x00000000 (0000ms, 0643ms total)
T3324 002:640 JLINK_ReadReg(R3)  returns 0x00004801 (0000ms, 0643ms total)
T3324 002:640 JLINK_ReadReg(R4)  returns 0x00004B34 (0000ms, 0643ms total)
T3324 002:640 JLINK_ReadReg(R5)  returns 0x00004B34 (0000ms, 0643ms total)
T3324 002:640 JLINK_ReadReg(R6)  returns 0x12345678 (0000ms, 0643ms total)
T3324 002:640 JLINK_ReadReg(R7)  returns 0x07070707 (0000ms, 0643ms total)
T3324 002:640 JLINK_ReadReg(R8)  returns 0x08080808 (0000ms, 0643ms total)
T3324 002:640 JLINK_ReadReg(R9)  returns 0x09090909 (0000ms, 0643ms total)
T3324 002:640 JLINK_ReadReg(R10)  returns 0x10101010 (0000ms, 0643ms total)
T3324 002:640 JLINK_ReadReg(R11)  returns 0x11111111 (0000ms, 0643ms total)
T3324 002:640 JLINK_ReadReg(R12)  returns 0x12121212 (0000ms, 0643ms total)
T3324 002:640 JLINK_ReadReg(R13 (SP))  returns 0x100034A0 (0000ms, 0643ms total)
T3324 002:640 JLINK_ReadReg(R14)  returns 0x00000159 (0000ms, 0643ms total)
T3324 002:640 JLINK_ReadReg(R15 (PC))  returns 0x00004810 (0000ms, 0643ms total)
T3324 002:640 JLINK_ReadReg(XPSR)  returns 0x61000000 (0000ms, 0643ms total)
T3324 002:640 JLINK_ReadReg(MSP)  returns 0x100034A0 (0000ms, 0643ms total)
T3324 002:640 JLINK_ReadReg(PSP)  returns 0x10002474 (0000ms, 0643ms total)
T3324 002:640 JLINK_ReadReg(CFBP)  returns 0x00000000 (0000ms, 0643ms total)
T0BAC 002:647 JLINK_ReadMem (0x00004810, 0x003C Bytes, ...) -- CPU_ReadMem(128 bytes @ 0x00004800) -- Updating C cache (128 bytes @ 0x00004800) -- Read from C cache (60 bytes @ 0x00004810) - Data: 10 B5 FD F7 AD F9 18 48 FB F7 16 FD FF F7 B4 F8 ...  returns 0x00 (0001ms, 0644ms total)
T3324 044:286 JLINK_SetBPEx(Addr = 0x00002204, Type = 0xFFFFFFF2)  returns 0x00000002 (0000ms, 0644ms total)
T3324 044:286 JLINK_Go() -- CPU_WriteMem(4 bytes @ 0xE0002000) -- CPU_ReadMem(4 bytes @ 0xE0001000) -- CPU_WriteMem(4 bytes @ 0xE0002008) (0002ms, 0646ms total)
T3324 044:389 JLINK_IsHalted()  returns FALSE (0000ms, 0646ms total)
T3324 044:490 JLINK_IsHalted()  returns TRUE (0002ms, 0648ms total)
T3324 044:492 JLINK_Halt()  returns 0x00 (0000ms, 0646ms total)
T3324 044:492 JLINK_IsHalted()  returns TRUE (0000ms, 0646ms total)
T3324 044:492 JLINK_IsHalted()  returns TRUE (0000ms, 0646ms total)
T3324 044:492 JLINK_IsHalted()  returns TRUE (0000ms, 0646ms total)
T3324 044:492 JLINK_ReadReg(R15 (PC))  returns 0x00002204 (0000ms, 0646ms total)
T3324 044:492 JLINK_ReadReg(XPSR)  returns 0x01000000 (0000ms, 0646ms total)
T3324 044:492 JLINK_ClrBPEx(BPHandle = 0x00000002)  returns 0x00 (0000ms, 0646ms total)
T3324 044:492 JLINK_ReadMemU32(0xE000ED30, 0x0001 Items, ...) -- CPU_ReadMem(4 bytes @ 0xE000ED30) - Data: 02 00 00 00  returns 0x01 (0000ms, 0646ms total)
T3324 044:492 JLINK_ReadMemU32(0xE0001028, 0x0001 Items, ...) -- CPU_ReadMem(4 bytes @ 0xE0001028) - Data: 00 00 00 00  returns 0x01 (0007ms, 0653ms total)
T3324 044:499 JLINK_ReadMemU32(0xE0001038, 0x0001 Items, ...) -- CPU_ReadMem(4 bytes @ 0xE0001038) - Data: 00 02 00 00  returns 0x01 (0001ms, 0654ms total)
T3324 044:500 JLINK_ReadMemU32(0xE0001048, 0x0001 Items, ...) -- CPU_ReadMem(4 bytes @ 0xE0001048) - Data: 00 00 00 00  returns 0x01 (0000ms, 0654ms total)
T3324 044:500 JLINK_ReadMemU32(0xE0001058, 0x0001 Items, ...) -- CPU_ReadMem(4 bytes @ 0xE0001058) - Data: 00 00 00 00  returns 0x01 (0000ms, 0654ms total)
T3324 044:500 JLINK_ReadReg(R0)  returns 0x10001E74 (0000ms, 0654ms total)
T3324 044:500 JLINK_ReadReg(R1)  returns 0x10000078 (0000ms, 0654ms total)
T3324 044:500 JLINK_ReadReg(R2)  returns 0x00000000 (0000ms, 0654ms total)
T3324 044:500 JLINK_ReadReg(R3)  returns 0x00000000 (0000ms, 0654ms total)
T3324 044:500 JLINK_ReadReg(R4)  returns 0x00000000 (0000ms, 0654ms total)
T3324 044:500 JLINK_ReadReg(R5)  returns 0x05050505 (0000ms, 0654ms total)
T3324 044:500 JLINK_ReadReg(R6)  returns 0x06060606 (0000ms, 0654ms total)
T3324 044:501 JLINK_ReadReg(R7)  returns 0x07070707 (0000ms, 0655ms total)
T3324 044:501 JLINK_ReadReg(R8)  returns 0x08080808 (0000ms, 0655ms total)
T3324 044:501 JLINK_ReadReg(R9)  returns 0x09090909 (0000ms, 0655ms total)
T3324 044:501 JLINK_ReadReg(R10)  returns 0x10101010 (0000ms, 0655ms total)
T3324 044:501 JLINK_ReadReg(R11)  returns 0x11111111 (0000ms, 0655ms total)
T3324 044:501 JLINK_ReadReg(R12)  returns 0x12121212 (0000ms, 0655ms total)
T3324 044:501 JLINK_ReadReg(R13 (SP))  returns 0x1000155C (0000ms, 0655ms total)
T3324 044:501 JLINK_ReadReg(R14)  returns 0x00001E1D (0000ms, 0655ms total)
T3324 044:501 JLINK_ReadReg(R15 (PC))  returns 0x00002204 (0000ms, 0655ms total)
T3324 044:501 JLINK_ReadReg(XPSR)  returns 0x01000000 (0000ms, 0655ms total)
T3324 044:501 JLINK_ReadReg(MSP)  returns 0x10003470 (0000ms, 0655ms total)
T3324 044:501 JLINK_ReadReg(PSP)  returns 0x1000155C (0000ms, 0655ms total)
T3324 044:501 JLINK_ReadReg(CFBP)  returns 0x02000000 (0000ms, 0655ms total)
T0BAC 044:501 JLINK_ReadMem (0x10001560, 0x0004 Bytes, ...) -- CPU_ReadMem(64 bytes @ 0x10001540) -- Updating C cache (64 bytes @ 0x10001540) -- Read from C cache (4 bytes @ 0x10001560) - Data: 1D 1E 00 00  returns 0x00 (0001ms, 0656ms total)
T0BAC 044:502 JLINK_ReadMem (0x1000155C, 0x0004 Bytes, ...) -- Read from C cache (4 bytes @ 0x1000155C) - Data: 00 00 00 00  returns 0x00 (0000ms, 0656ms total)
T0BAC 045:817 JLINK_ReadMem (0x10001F28, 0x0004 Bytes, ...) -- CPU_ReadMem(64 bytes @ 0x10001F00) -- Updating C cache (64 bytes @ 0x10001F00) -- Read from C cache (4 bytes @ 0x10001F28) - Data: 00 00 00 00  returns 0x00 (0001ms, 0657ms total)
T3324 048:641 JLINK_Step() -- CPU_ReadMem(64 bytes @ 0x00002200) -- Updating C cache (64 bytes @ 0x00002200) -- Read from C cache (2 bytes @ 0x00002204) -- CPU_ReadMem(4 bytes @ 0xE000ED18) -- CPU_WriteMem(4 bytes @ 0xE000ED18) -- CPU_ReadMem(4 bytes @ 0xE000ED18) -- CPU_WriteMem(4 bytes @ 0xE000ED18) -- CPU_ReadMem(4 bytes @ 0xE0001004) -- CPU_ReadMem(64 bytes @ 0x00002300) -- Updating C cache (64 bytes @ 0x00002300) -- Read from C cache (4 bytes @ 0x00002314) -- Simulated  returns 0x00
 (0003ms, 0660ms total)
T3324 048:644 JLINK_ReadReg(R15 (PC))  returns 0x00002206 (0000ms, 0660ms total)
T3324 048:644 JLINK_ReadReg(XPSR)  returns 0x01000000 (0000ms, 0660ms total)
T3324 048:644 JLINK_SetBPEx(Addr = 0x00002204, Type = 0xFFFFFFF2)  returns 0x00000003 (0000ms, 0660ms total)
T3324 048:644 JLINK_Go() -- CPU_WriteMem(4 bytes @ 0xE0002000) -- CPU_ReadMem(4 bytes @ 0xE0001000) -- CPU_WriteMem(4 bytes @ 0xE0001004) (0001ms, 0661ms total)
T3324 048:745 JLINK_IsHalted()  returns TRUE (0001ms, 0662ms total)
T3324 048:747 JLINK_Halt()  returns 0x00 (0000ms, 0661ms total)
T3324 048:747 JLINK_IsHalted()  returns TRUE (0000ms, 0661ms total)
T3324 048:747 JLINK_IsHalted()  returns TRUE (0000ms, 0661ms total)
T3324 048:747 JLINK_IsHalted()  returns TRUE (0000ms, 0661ms total)
T3324 048:747 JLINK_ReadReg(R15 (PC))  returns 0x00002204 (0000ms, 0661ms total)
T3324 048:747 JLINK_ReadReg(XPSR)  returns 0x01000000 (0000ms, 0661ms total)
T3324 048:747 JLINK_ClrBPEx(BPHandle = 0x00000003)  returns 0x00 (0000ms, 0661ms total)
T3324 048:747 JLINK_ReadMemU32(0xE000ED30, 0x0001 Items, ...) -- CPU_ReadMem(4 bytes @ 0xE000ED30) - Data: 02 00 00 00  returns 0x01 (0000ms, 0661ms total)
T3324 048:747 JLINK_ReadMemU32(0xE0001028, 0x0001 Items, ...) -- CPU_ReadMem(4 bytes @ 0xE0001028) - Data: 00 00 00 00  returns 0x01 (0000ms, 0661ms total)
T3324 048:747 JLINK_ReadMemU32(0xE0001038, 0x0001 Items, ...) -- CPU_ReadMem(4 bytes @ 0xE0001038) - Data: 00 02 00 00  returns 0x01 (0001ms, 0662ms total)
T3324 048:748 JLINK_ReadMemU32(0xE0001048, 0x0001 Items, ...) -- CPU_ReadMem(4 bytes @ 0xE0001048) - Data: 00 00 00 00  returns 0x01 (0000ms, 0662ms total)
T3324 048:748 JLINK_ReadMemU32(0xE0001058, 0x0001 Items, ...) -- CPU_ReadMem(4 bytes @ 0xE0001058) - Data: 00 00 00 00  returns 0x01 (0000ms, 0662ms total)
T3324 048:748 JLINK_ReadReg(R0)  returns 0x10001E84 (0000ms, 0662ms total)
T3324 048:748 JLINK_ReadReg(R1)  returns 0x10000078 (0000ms, 0662ms total)
T3324 048:748 JLINK_ReadReg(R2)  returns 0x00000000 (0000ms, 0662ms total)
T3324 048:748 JLINK_ReadReg(R3)  returns 0x00000000 (0000ms, 0662ms total)
T3324 048:749 JLINK_ReadReg(R4)  returns 0x00000000 (0000ms, 0662ms total)
T3324 048:749 JLINK_ReadReg(R5)  returns 0x05050505 (0000ms, 0662ms total)
T3324 048:749 JLINK_ReadReg(R6)  returns 0x06060606 (0000ms, 0662ms total)
T3324 048:749 JLINK_ReadReg(R7)  returns 0x07070707 (0000ms, 0662ms total)
T3324 048:749 JLINK_ReadReg(R8)  returns 0x08080808 (0000ms, 0662ms total)
T3324 048:749 JLINK_ReadReg(R9)  returns 0x09090909 (0000ms, 0662ms total)
T3324 048:749 JLINK_ReadReg(R10)  returns 0x10101010 (0000ms, 0662ms total)
T3324 048:749 JLINK_ReadReg(R11)  returns 0x11111111 (0000ms, 0662ms total)
T3324 048:749 JLINK_ReadReg(R12)  returns 0x12121212 (0000ms, 0662ms total)
T3324 048:749 JLINK_ReadReg(R13 (SP))  returns 0x1000155C (0000ms, 0662ms total)
T3324 048:749 JLINK_ReadReg(R14)  returns 0x00001E1D (0000ms, 0662ms total)
T3324 048:749 JLINK_ReadReg(R15 (PC))  returns 0x00002204 (0000ms, 0662ms total)
T3324 048:749 JLINK_ReadReg(XPSR)  returns 0x01000000 (0000ms, 0662ms total)
T3324 048:749 JLINK_ReadReg(MSP)  returns 0x10003470 (0000ms, 0662ms total)
T3324 048:749 JLINK_ReadReg(PSP)  returns 0x1000155C (0000ms, 0662ms total)
T3324 048:749 JLINK_ReadReg(CFBP)  returns 0x02000000 (0000ms, 0662ms total)
T0BAC 048:749 JLINK_ReadMem (0x10001560, 0x0004 Bytes, ...) -- CPU_ReadMem(64 bytes @ 0x10001540) -- Updating C cache (64 bytes @ 0x10001540) -- Read from C cache (4 bytes @ 0x10001560) - Data: 1D 1E 00 00  returns 0x00 (0001ms, 0663ms total)
T0BAC 048:750 JLINK_ReadMem (0x1000155C, 0x0004 Bytes, ...) -- Read from C cache (4 bytes @ 0x1000155C) - Data: 00 00 00 00  returns 0x00 (0000ms, 0663ms total)
T0BAC 049:826 JLINK_ReadMem (0x10001F28, 0x0004 Bytes, ...) -- CPU_ReadMem(64 bytes @ 0x10001F00) -- Updating C cache (64 bytes @ 0x10001F00) -- Read from C cache (4 bytes @ 0x10001F28) - Data: 00 00 00 00  returns 0x00 (0001ms, 0664ms total)
T3324 052:663 JLINK_Step() -- CPU_ReadMem(64 bytes @ 0x00002200) -- Updating C cache (64 bytes @ 0x00002200) -- Read from C cache (2 bytes @ 0x00002204) -- CPU_ReadMem(4 bytes @ 0xE0001004) -- CPU_ReadMem(64 bytes @ 0x00002300) -- Updating C cache (64 bytes @ 0x00002300) -- Read from C cache (4 bytes @ 0x00002314) -- Simulated  returns 0x00 (0002ms, 0666ms total)
T3324 052:665 JLINK_ReadReg(R15 (PC))  returns 0x00002206 (0000ms, 0666ms total)
T3324 052:665 JLINK_ReadReg(XPSR)  returns 0x01000000 (0000ms, 0666ms total)
T3324 052:665 JLINK_SetBPEx(Addr = 0x00002204, Type = 0xFFFFFFF2)  returns 0x00000004 (0000ms, 0666ms total)
T3324 052:665 JLINK_Go() -- CPU_WriteMem(4 bytes @ 0xE0002000) -- CPU_ReadMem(4 bytes @ 0xE0001000) -- CPU_WriteMem(4 bytes @ 0xE0001004) (0002ms, 0668ms total)
T3324 052:768 JLINK_IsHalted()  returns TRUE (0002ms, 0670ms total)
T3324 052:770 JLINK_Halt()  returns 0x00 (0000ms, 0668ms total)
T3324 052:770 JLINK_IsHalted()  returns TRUE (0000ms, 0668ms total)
T3324 052:770 JLINK_IsHalted()  returns TRUE (0000ms, 0668ms total)
T3324 052:770 JLINK_IsHalted()  returns TRUE (0000ms, 0668ms total)
T3324 052:770 JLINK_ReadReg(R15 (PC))  returns 0x00002204 (0000ms, 0668ms total)
T3324 052:770 JLINK_ReadReg(XPSR)  returns 0x01000000 (0000ms, 0668ms total)
T3324 052:770 JLINK_ClrBPEx(BPHandle = 0x00000004)  returns 0x00 (0000ms, 0668ms total)
T3324 052:770 JLINK_ReadMemU32(0xE000ED30, 0x0001 Items, ...) -- CPU_ReadMem(4 bytes @ 0xE000ED30) - Data: 02 00 00 00  returns 0x01 (0000ms, 0668ms total)
T3324 052:770 JLINK_ReadMemU32(0xE0001028, 0x0001 Items, ...) -- CPU_ReadMem(4 bytes @ 0xE0001028) - Data: 00 00 00 00  returns 0x01 (0000ms, 0668ms total)
T3324 052:770 JLINK_ReadMemU32(0xE0001038, 0x0001 Items, ...) -- CPU_ReadMem(4 bytes @ 0xE0001038) - Data: 00 02 00 00  returns 0x01 (0001ms, 0669ms total)
T3324 052:771 JLINK_ReadMemU32(0xE0001048, 0x0001 Items, ...) -- CPU_ReadMem(4 bytes @ 0xE0001048) - Data: 00 00 00 00  returns 0x01 (0000ms, 0669ms total)
T3324 052:771 JLINK_ReadMemU32(0xE0001058, 0x0001 Items, ...) -- CPU_ReadMem(4 bytes @ 0xE0001058) - Data: 00 00 00 00  returns 0x01 (0000ms, 0669ms total)
T3324 052:771 JLINK_ReadReg(R0)  returns 0x10001E94 (0000ms, 0669ms total)
T3324 052:771 JLINK_ReadReg(R1)  returns 0x10000078 (0000ms, 0669ms total)
T3324 052:771 JLINK_ReadReg(R2)  returns 0x00000000 (0000ms, 0669ms total)
T3324 052:771 JLINK_ReadReg(R3)  returns 0x00000000 (0000ms, 0669ms total)
T3324 052:771 JLINK_ReadReg(R4)  returns 0x00000000 (0000ms, 0669ms total)
T3324 052:771 JLINK_ReadReg(R5)  returns 0x05050505 (0000ms, 0669ms total)
T3324 052:771 JLINK_ReadReg(R6)  returns 0x06060606 (0000ms, 0669ms total)
T3324 052:771 JLINK_ReadReg(R7)  returns 0x07070707 (0001ms, 0670ms total)
T3324 052:772 JLINK_ReadReg(R8)  returns 0x08080808 (0000ms, 0670ms total)
T3324 052:772 JLINK_ReadReg(R9)  returns 0x09090909 (0000ms, 0670ms total)
T3324 052:772 JLINK_ReadReg(R10)  returns 0x10101010 (0000ms, 0670ms total)
T3324 052:772 JLINK_ReadReg(R11)  returns 0x11111111 (0000ms, 0670ms total)
T3324 052:772 JLINK_ReadReg(R12)  returns 0x12121212 (0000ms, 0670ms total)
T3324 052:772 JLINK_ReadReg(R13 (SP))  returns 0x1000155C (0000ms, 0670ms total)
T3324 052:772 JLINK_ReadReg(R14)  returns 0x00001E1D (0000ms, 0670ms total)
T3324 052:772 JLINK_ReadReg(R15 (PC))  returns 0x00002204 (0000ms, 0670ms total)
T3324 052:772 JLINK_ReadReg(XPSR)  returns 0x01000000 (0000ms, 0670ms total)
T3324 052:772 JLINK_ReadReg(MSP)  returns 0x10003470 (0000ms, 0670ms total)
T3324 052:772 JLINK_ReadReg(PSP)  returns 0x1000155C (0000ms, 0670ms total)
T3324 052:772 JLINK_ReadReg(CFBP)  returns 0x02000000 (0000ms, 0670ms total)
T0BAC 052:772 JLINK_ReadMem (0x10001560, 0x0004 Bytes, ...) -- CPU_ReadMem(64 bytes @ 0x10001540) -- Updating C cache (64 bytes @ 0x10001540) -- Read from C cache (4 bytes @ 0x10001560) - Data: 1D 1E 00 00  returns 0x00 (0001ms, 0671ms total)
T0BAC 052:773 JLINK_ReadMem (0x1000155C, 0x0004 Bytes, ...) -- Read from C cache (4 bytes @ 0x1000155C) - Data: 00 00 00 00  returns 0x00 (0000ms, 0671ms total)
T3324 053:519 JLINK_Step() -- CPU_ReadMem(64 bytes @ 0x00002200) -- Updating C cache (64 bytes @ 0x00002200) -- Read from C cache (2 bytes @ 0x00002204) -- CPU_ReadMem(4 bytes @ 0xE0001004) -- CPU_ReadMem(64 bytes @ 0x00002300) -- Updating C cache (64 bytes @ 0x00002300) -- Read from C cache (4 bytes @ 0x00002314) -- Simulated  returns 0x00 (0002ms, 0673ms total)
T3324 053:521 JLINK_ReadReg(R15 (PC))  returns 0x00002206 (0000ms, 0673ms total)
T3324 053:521 JLINK_ReadReg(XPSR)  returns 0x01000000 (0000ms, 0673ms total)
T3324 053:521 JLINK_SetBPEx(Addr = 0x00002204, Type = 0xFFFFFFF2)  returns 0x00000005 (0000ms, 0673ms total)
T3324 053:521 JLINK_Go() -- CPU_WriteMem(4 bytes @ 0xE0002000) -- CPU_ReadMem(4 bytes @ 0xE0001000) -- CPU_WriteMem(4 bytes @ 0xE0001004) (0002ms, 0675ms total)
T3324 053:623 JLINK_IsHalted()  returns TRUE (0001ms, 0676ms total)
T3324 053:624 JLINK_Halt()  returns 0x00 (0001ms, 0676ms total)
T3324 053:625 JLINK_IsHalted()  returns TRUE (0000ms, 0676ms total)
T3324 053:625 JLINK_IsHalted()  returns TRUE (0000ms, 0676ms total)
T3324 053:625 JLINK_IsHalted()  returns TRUE (0000ms, 0676ms total)
T3324 053:625 JLINK_ReadReg(R15 (PC))  returns 0x00002204 (0000ms, 0676ms total)
T3324 053:625 JLINK_ReadReg(XPSR)  returns 0x01000000 (0000ms, 0676ms total)
T3324 053:625 JLINK_ClrBPEx(BPHandle = 0x00000005)  returns 0x00 (0000ms, 0676ms total)
T3324 053:625 JLINK_ReadMemU32(0xE000ED30, 0x0001 Items, ...) -- CPU_ReadMem(4 bytes @ 0xE000ED30) - Data: 02 00 00 00  returns 0x01 (0000ms, 0676ms total)
T3324 053:625 JLINK_ReadMemU32(0xE0001028, 0x0001 Items, ...) -- CPU_ReadMem(4 bytes @ 0xE0001028) - Data: 00 00 00 00  returns 0x01 (0000ms, 0676ms total)
T3324 053:625 JLINK_ReadMemU32(0xE0001038, 0x0001 Items, ...) -- CPU_ReadMem(4 bytes @ 0xE0001038) - Data: 00 02 00 00  returns 0x01 (0001ms, 0677ms total)
T3324 053:626 JLINK_ReadMemU32(0xE0001048, 0x0001 Items, ...) -- CPU_ReadMem(4 bytes @ 0xE0001048) - Data: 00 00 00 00  returns 0x01 (0000ms, 0677ms total)
T3324 053:626 JLINK_ReadMemU32(0xE0001058, 0x0001 Items, ...) -- CPU_ReadMem(4 bytes @ 0xE0001058) - Data: 00 00 00 00  returns 0x01 (0000ms, 0677ms total)
T3324 053:626 JLINK_ReadReg(R0)  returns 0x10001EA4 (0000ms, 0677ms total)
T3324 053:626 JLINK_ReadReg(R1)  returns 0x10000078 (0000ms, 0677ms total)
T3324 053:626 JLINK_ReadReg(R2)  returns 0x00000000 (0000ms, 0677ms total)
T3324 053:626 JLINK_ReadReg(R3)  returns 0x00000000 (0000ms, 0677ms total)
T3324 053:626 JLINK_ReadReg(R4)  returns 0x00000000 (0000ms, 0677ms total)
T3324 053:626 JLINK_ReadReg(R5)  returns 0x05050505 (0000ms, 0677ms total)
T3324 053:626 JLINK_ReadReg(R6)  returns 0x06060606 (0000ms, 0677ms total)
T3324 053:626 JLINK_ReadReg(R7)  returns 0x07070707 (0000ms, 0677ms total)
T3324 053:626 JLINK_ReadReg(R8)  returns 0x08080808 (0000ms, 0677ms total)
T3324 053:626 JLINK_ReadReg(R9)  returns 0x09090909 (0001ms, 0678ms total)
T3324 053:627 JLINK_ReadReg(R10)  returns 0x10101010 (0000ms, 0678ms total)
T3324 053:627 JLINK_ReadReg(R11)  returns 0x11111111 (0000ms, 0678ms total)
T3324 053:627 JLINK_ReadReg(R12)  returns 0x12121212 (0000ms, 0678ms total)
T3324 053:627 JLINK_ReadReg(R13 (SP))  returns 0x1000155C (0000ms, 0678ms total)
T3324 053:627 JLINK_ReadReg(R14)  returns 0x00001E1D (0000ms, 0678ms total)
T3324 053:627 JLINK_ReadReg(R15 (PC))  returns 0x00002204 (0000ms, 0678ms total)
T3324 053:627 JLINK_ReadReg(XPSR)  returns 0x01000000 (0000ms, 0678ms total)
T3324 053:627 JLINK_ReadReg(MSP)  returns 0x10003470 (0000ms, 0678ms total)
T3324 053:627 JLINK_ReadReg(PSP)  returns 0x1000155C (0000ms, 0678ms total)
T3324 053:627 JLINK_ReadReg(CFBP)  returns 0x02000000 (0000ms, 0678ms total)
T0BAC 053:627 JLINK_ReadMem (0x10001560, 0x0004 Bytes, ...) -- CPU_ReadMem(64 bytes @ 0x10001540) -- Updating C cache (64 bytes @ 0x10001540) -- Read from C cache (4 bytes @ 0x10001560) - Data: 1D 1E 00 00  returns 0x00 (0001ms, 0679ms total)
T0BAC 053:628 JLINK_ReadMem (0x1000155C, 0x0004 Bytes, ...) -- Read from C cache (4 bytes @ 0x1000155C) - Data: 00 00 00 00  returns 0x00 (0000ms, 0679ms total)
T3324 054:288 JLINK_Step() -- CPU_ReadMem(64 bytes @ 0x00002200) -- Updating C cache (64 bytes @ 0x00002200) -- Read from C cache (2 bytes @ 0x00002204) -- CPU_ReadMem(4 bytes @ 0xE0001004) -- CPU_ReadMem(64 bytes @ 0x00002300) -- Updating C cache (64 bytes @ 0x00002300) -- Read from C cache (4 bytes @ 0x00002314) -- Simulated  returns 0x00 (0002ms, 0681ms total)
T3324 054:290 JLINK_ReadReg(R15 (PC))  returns 0x00002206 (0000ms, 0681ms total)
T3324 054:290 JLINK_ReadReg(XPSR)  returns 0x01000000 (0000ms, 0681ms total)
T3324 054:290 JLINK_SetBPEx(Addr = 0x00002204, Type = 0xFFFFFFF2)  returns 0x00000006 (0000ms, 0681ms total)
T3324 054:290 JLINK_Go() -- CPU_WriteMem(4 bytes @ 0xE0002000) -- CPU_ReadMem(4 bytes @ 0xE0001000) -- CPU_WriteMem(4 bytes @ 0xE0001004) (0001ms, 0682ms total)
T3324 054:392 JLINK_IsHalted()  returns TRUE (0002ms, 0684ms total)
T3324 054:394 JLINK_Halt()  returns 0x00 (0000ms, 0682ms total)
T3324 054:394 JLINK_IsHalted()  returns TRUE (0000ms, 0682ms total)
T3324 054:394 JLINK_IsHalted()  returns TRUE (0000ms, 0682ms total)
T3324 054:394 JLINK_IsHalted()  returns TRUE (0000ms, 0682ms total)
T3324 054:394 JLINK_ReadReg(R15 (PC))  returns 0x00002204 (0000ms, 0682ms total)
T3324 054:394 JLINK_ReadReg(XPSR)  returns 0x01000000 (0000ms, 0682ms total)
T3324 054:394 JLINK_ClrBPEx(BPHandle = 0x00000006)  returns 0x00 (0000ms, 0682ms total)
T3324 054:394 JLINK_ReadMemU32(0xE000ED30, 0x0001 Items, ...) -- CPU_ReadMem(4 bytes @ 0xE000ED30) - Data: 02 00 00 00  returns 0x01 (0000ms, 0682ms total)
T3324 054:394 JLINK_ReadMemU32(0xE0001028, 0x0001 Items, ...) -- CPU_ReadMem(4 bytes @ 0xE0001028) - Data: 00 00 00 00  returns 0x01 (0000ms, 0682ms total)
T3324 054:394 JLINK_ReadMemU32(0xE0001038, 0x0001 Items, ...) -- CPU_ReadMem(4 bytes @ 0xE0001038) - Data: 00 02 00 00  returns 0x01 (0001ms, 0683ms total)
T3324 054:395 JLINK_ReadMemU32(0xE0001048, 0x0001 Items, ...) -- CPU_ReadMem(4 bytes @ 0xE0001048) - Data: 00 00 00 00  returns 0x01 (0000ms, 0683ms total)
T3324 054:395 JLINK_ReadMemU32(0xE0001058, 0x0001 Items, ...) -- CPU_ReadMem(4 bytes @ 0xE0001058) - Data: 00 00 00 00  returns 0x01 (0000ms, 0683ms total)
T3324 054:396 JLINK_ReadReg(R0)  returns 0x10001EB4 (0000ms, 0683ms total)
T3324 054:396 JLINK_ReadReg(R1)  returns 0x10000078 (0000ms, 0683ms total)
T3324 054:396 JLINK_ReadReg(R2)  returns 0x00000000 (0000ms, 0683ms total)
T3324 054:396 JLINK_ReadReg(R3)  returns 0x00000000 (0000ms, 0683ms total)
T3324 054:396 JLINK_ReadReg(R4)  returns 0x00000000 (0000ms, 0683ms total)
T3324 054:396 JLINK_ReadReg(R5)  returns 0x05050505 (0000ms, 0683ms total)
T3324 054:396 JLINK_ReadReg(R6)  returns 0x06060606 (0000ms, 0683ms total)
T3324 054:396 JLINK_ReadReg(R7)  returns 0x07070707 (0000ms, 0683ms total)
T3324 054:396 JLINK_ReadReg(R8)  returns 0x08080808 (0000ms, 0683ms total)
T3324 054:396 JLINK_ReadReg(R9)  returns 0x09090909 (0000ms, 0683ms total)
T3324 054:396 JLINK_ReadReg(R10)  returns 0x10101010 (0000ms, 0683ms total)
T3324 054:396 JLINK_ReadReg(R11)  returns 0x11111111 (0000ms, 0683ms total)
T3324 054:396 JLINK_ReadReg(R12)  returns 0x12121212 (0000ms, 0683ms total)
T3324 054:396 JLINK_ReadReg(R13 (SP))  returns 0x1000155C (0000ms, 0683ms total)
T3324 054:396 JLINK_ReadReg(R14)  returns 0x00001E1D (0000ms, 0683ms total)
T3324 054:396 JLINK_ReadReg(R15 (PC))  returns 0x00002204 (0000ms, 0683ms total)
T3324 054:396 JLINK_ReadReg(XPSR)  returns 0x01000000 (0000ms, 0683ms total)
T3324 054:396 JLINK_ReadReg(MSP)  returns 0x10003470 (0000ms, 0683ms total)
T3324 054:396 JLINK_ReadReg(PSP)  returns 0x1000155C (0000ms, 0683ms total)
T3324 054:396 JLINK_ReadReg(CFBP)  returns 0x02000000 (0000ms, 0683ms total)
T0BAC 054:396 JLINK_ReadMem (0x10001560, 0x0004 Bytes, ...) -- CPU_ReadMem(64 bytes @ 0x10001540) -- Updating C cache (64 bytes @ 0x10001540) -- Read from C cache (4 bytes @ 0x10001560) - Data: 1D 1E 00 00  returns 0x00 (0001ms, 0684ms total)
T0BAC 054:397 JLINK_ReadMem (0x1000155C, 0x0004 Bytes, ...) -- Read from C cache (4 bytes @ 0x1000155C) - Data: 00 00 00 00  returns 0x00 (0000ms, 0684ms total)
T0BAC 055:887 JLINK_ReadMem (0x10001F28, 0x0004 Bytes, ...) -- CPU_ReadMem(64 bytes @ 0x10001F00) -- Updating C cache (64 bytes @ 0x10001F00) -- Read from C cache (4 bytes @ 0x10001F28) - Data: 00 00 00 00  returns 0x00 (0000ms, 0684ms total)
T3324 058:048 JLINK_Step() -- CPU_ReadMem(64 bytes @ 0x00002200) -- Updating C cache (64 bytes @ 0x00002200) -- Read from C cache (2 bytes @ 0x00002204) -- CPU_ReadMem(4 bytes @ 0xE0001004) -- CPU_ReadMem(64 bytes @ 0x00002300) -- Updating C cache (64 bytes @ 0x00002300) -- Read from C cache (4 bytes @ 0x00002314) -- Simulated  returns 0x00 (0001ms, 0685ms total)
T3324 058:049 JLINK_ReadReg(R15 (PC))  returns 0x00002206 (0000ms, 0685ms total)
T3324 058:050 JLINK_ReadReg(XPSR)  returns 0x01000000 (0000ms, 0686ms total)
T3324 058:050 JLINK_SetBPEx(Addr = 0x00002204, Type = 0xFFFFFFF2)  returns 0x00000007 (0000ms, 0686ms total)
T3324 058:050 JLINK_Go() -- CPU_WriteMem(4 bytes @ 0xE0002000) -- CPU_ReadMem(4 bytes @ 0xE0001000) -- CPU_WriteMem(4 bytes @ 0xE0001004) (0001ms, 0687ms total)
T3324 058:152 JLINK_IsHalted()  returns TRUE (0002ms, 0689ms total)
T3324 058:154 JLINK_Halt()  returns 0x00 (0000ms, 0687ms total)
T3324 058:154 JLINK_IsHalted()  returns TRUE (0000ms, 0687ms total)
T3324 058:154 JLINK_IsHalted()  returns TRUE (0000ms, 0687ms total)
T3324 058:154 JLINK_IsHalted()  returns TRUE (0000ms, 0687ms total)
T3324 058:154 JLINK_ReadReg(R15 (PC))  returns 0x00002204 (0000ms, 0687ms total)
T3324 058:154 JLINK_ReadReg(XPSR)  returns 0x01000000 (0000ms, 0687ms total)
T3324 058:154 JLINK_ClrBPEx(BPHandle = 0x00000007)  returns 0x00 (0000ms, 0687ms total)
T3324 058:154 JLINK_ReadMemU32(0xE000ED30, 0x0001 Items, ...) -- CPU_ReadMem(4 bytes @ 0xE000ED30) - Data: 02 00 00 00  returns 0x01 (0000ms, 0687ms total)
T3324 058:154 JLINK_ReadMemU32(0xE0001028, 0x0001 Items, ...) -- CPU_ReadMem(4 bytes @ 0xE0001028) - Data: 00 00 00 00  returns 0x01 (0000ms, 0687ms total)
T3324 058:155 JLINK_ReadMemU32(0xE0001038, 0x0001 Items, ...) -- CPU_ReadMem(4 bytes @ 0xE0001038) - Data: 00 02 00 00  returns 0x01 (0000ms, 0687ms total)
T3324 058:155 JLINK_ReadMemU32(0xE0001048, 0x0001 Items, ...) -- CPU_ReadMem(4 bytes @ 0xE0001048) - Data: 00 00 00 00  returns 0x01 (0000ms, 0687ms total)
T3324 058:155 JLINK_ReadMemU32(0xE0001058, 0x0001 Items, ...) -- CPU_ReadMem(4 bytes @ 0xE0001058) - Data: 00 00 00 00  returns 0x01 (0000ms, 0687ms total)
T3324 058:155 JLINK_ReadReg(R0)  returns 0x10001EC4 (0000ms, 0687ms total)
T3324 058:155 JLINK_ReadReg(R1)  returns 0x10000078 (0001ms, 0688ms total)
T3324 058:156 JLINK_ReadReg(R2)  returns 0x00000000 (0000ms, 0688ms total)
T3324 058:156 JLINK_ReadReg(R3)  returns 0x00000000 (0000ms, 0688ms total)
T3324 058:156 JLINK_ReadReg(R4)  returns 0x00000000 (0000ms, 0688ms total)
T3324 058:156 JLINK_ReadReg(R5)  returns 0x05050505 (0000ms, 0688ms total)
T3324 058:156 JLINK_ReadReg(R6)  returns 0x06060606 (0000ms, 0688ms total)
T3324 058:156 JLINK_ReadReg(R7)  returns 0x07070707 (0000ms, 0688ms total)
T3324 058:156 JLINK_ReadReg(R8)  returns 0x08080808 (0000ms, 0688ms total)
T3324 058:156 JLINK_ReadReg(R9)  returns 0x09090909 (0000ms, 0688ms total)
T3324 058:156 JLINK_ReadReg(R10)  returns 0x10101010 (0000ms, 0688ms total)
T3324 058:156 JLINK_ReadReg(R11)  returns 0x11111111 (0000ms, 0688ms total)
T3324 058:156 JLINK_ReadReg(R12)  returns 0x12121212 (0000ms, 0688ms total)
T3324 058:156 JLINK_ReadReg(R13 (SP))  returns 0x1000155C (0000ms, 0688ms total)
T3324 058:156 JLINK_ReadReg(R14)  returns 0x00001E1D (0000ms, 0688ms total)
T3324 058:156 JLINK_ReadReg(R15 (PC))  returns 0x00002204 (0000ms, 0688ms total)
T3324 058:156 JLINK_ReadReg(XPSR)  returns 0x01000000 (0000ms, 0688ms total)
T3324 058:156 JLINK_ReadReg(MSP)  returns 0x10003470 (0000ms, 0688ms total)
T3324 058:156 JLINK_ReadReg(PSP)  returns 0x1000155C (0000ms, 0688ms total)
T3324 058:156 JLINK_ReadReg(CFBP)  returns 0x02000000 (0000ms, 0688ms total)
T0BAC 058:156 JLINK_ReadMem (0x10001560, 0x0004 Bytes, ...) -- CPU_ReadMem(64 bytes @ 0x10001540) -- Updating C cache (64 bytes @ 0x10001540) -- Read from C cache (4 bytes @ 0x10001560) - Data: 1D 1E 00 00  returns 0x00 (0001ms, 0689ms total)
T0BAC 058:157 JLINK_ReadMem (0x1000155C, 0x0004 Bytes, ...) -- Read from C cache (4 bytes @ 0x1000155C) - Data: 00 00 00 00  returns 0x00 (0000ms, 0689ms total)
T3324 058:919 JLINK_Step() -- CPU_ReadMem(64 bytes @ 0x00002200) -- Updating C cache (64 bytes @ 0x00002200) -- Read from C cache (2 bytes @ 0x00002204) -- CPU_ReadMem(4 bytes @ 0xE0001004) -- CPU_ReadMem(64 bytes @ 0x00002300) -- Updating C cache (64 bytes @ 0x00002300) -- Read from C cache (4 bytes @ 0x00002314) -- Simulated  returns 0x00 (0002ms, 0691ms total)
T3324 058:921 JLINK_ReadReg(R15 (PC))  returns 0x00002206 (0000ms, 0691ms total)
T3324 058:921 JLINK_ReadReg(XPSR)  returns 0x01000000 (0000ms, 0691ms total)
T3324 058:921 JLINK_SetBPEx(Addr = 0x00002204, Type = 0xFFFFFFF2)  returns 0x00000008 (0000ms, 0691ms total)
T3324 058:921 JLINK_Go() -- CPU_WriteMem(4 bytes @ 0xE0002000) -- CPU_ReadMem(4 bytes @ 0xE0001000) -- CPU_WriteMem(4 bytes @ 0xE0001004) (0002ms, 0693ms total)
T3324 059:024 JLINK_IsHalted()  returns TRUE (0002ms, 0695ms total)
T3324 059:026 JLINK_Halt()  returns 0x00 (0000ms, 0693ms total)
T3324 059:026 JLINK_IsHalted()  returns TRUE (0000ms, 0693ms total)
T3324 059:026 JLINK_IsHalted()  returns TRUE (0000ms, 0693ms total)
T3324 059:026 JLINK_IsHalted()  returns TRUE (0000ms, 0693ms total)
T3324 059:026 JLINK_ReadReg(R15 (PC))  returns 0x00002204 (0000ms, 0693ms total)
T3324 059:026 JLINK_ReadReg(XPSR)  returns 0x01000000 (0000ms, 0693ms total)
T3324 059:026 JLINK_ClrBPEx(BPHandle = 0x00000008)  returns 0x00 (0000ms, 0693ms total)
T3324 059:026 JLINK_ReadMemU32(0xE000ED30, 0x0001 Items, ...) -- CPU_ReadMem(4 bytes @ 0xE000ED30) - Data: 02 00 00 00  returns 0x01 (0000ms, 0693ms total)
T3324 059:026 JLINK_ReadMemU32(0xE0001028, 0x0001 Items, ...) -- CPU_ReadMem(4 bytes @ 0xE0001028) - Data: 00 00 00 00  returns 0x01 (0000ms, 0693ms total)
T3324 059:026 JLINK_ReadMemU32(0xE0001038, 0x0001 Items, ...) -- CPU_ReadMem(4 bytes @ 0xE0001038) - Data: 00 02 00 00  returns 0x01 (0001ms, 0694ms total)
T3324 059:027 JLINK_ReadMemU32(0xE0001048, 0x0001 Items, ...) -- CPU_ReadMem(4 bytes @ 0xE0001048) - Data: 00 00 00 00  returns 0x01 (0000ms, 0694ms total)
T3324 059:027 JLINK_ReadMemU32(0xE0001058, 0x0001 Items, ...) -- CPU_ReadMem(4 bytes @ 0xE0001058) - Data: 00 00 00 00  returns 0x01 (0001ms, 0695ms total)
T3324 059:028 JLINK_ReadReg(R0)  returns 0x10001ED4 (0000ms, 0695ms total)
T3324 059:028 JLINK_ReadReg(R1)  returns 0x10000078 (0000ms, 0695ms total)
T3324 059:028 JLINK_ReadReg(R2)  returns 0x00000000 (0000ms, 0695ms total)
T3324 059:028 JLINK_ReadReg(R3)  returns 0x00000000 (0000ms, 0695ms total)
T3324 059:028 JLINK_ReadReg(R4)  returns 0x00000000 (0000ms, 0695ms total)
T3324 059:028 JLINK_ReadReg(R5)  returns 0x05050505 (0000ms, 0695ms total)
T3324 059:028 JLINK_ReadReg(R6)  returns 0x06060606 (0000ms, 0695ms total)
T3324 059:028 JLINK_ReadReg(R7)  returns 0x07070707 (0000ms, 0695ms total)
T3324 059:028 JLINK_ReadReg(R8)  returns 0x08080808 (0000ms, 0695ms total)
T3324 059:028 JLINK_ReadReg(R9)  returns 0x09090909 (0000ms, 0695ms total)
T3324 059:028 JLINK_ReadReg(R10)  returns 0x10101010 (0000ms, 0695ms total)
T3324 059:028 JLINK_ReadReg(R11)  returns 0x11111111 (0000ms, 0695ms total)
T3324 059:028 JLINK_ReadReg(R12)  returns 0x12121212 (0000ms, 0695ms total)
T3324 059:028 JLINK_ReadReg(R13 (SP))  returns 0x1000155C (0000ms, 0695ms total)
T3324 059:028 JLINK_ReadReg(R14)  returns 0x00001E1D (0000ms, 0695ms total)
T3324 059:028 JLINK_ReadReg(R15 (PC))  returns 0x00002204 (0000ms, 0695ms total)
T3324 059:028 JLINK_ReadReg(XPSR)  returns 0x01000000 (0000ms, 0695ms total)
T3324 059:028 JLINK_ReadReg(MSP)  returns 0x10003470 (0000ms, 0695ms total)
T3324 059:028 JLINK_ReadReg(PSP)  returns 0x1000155C (0000ms, 0695ms total)
T3324 059:028 JLINK_ReadReg(CFBP)  returns 0x02000000 (0000ms, 0695ms total)
T0BAC 059:029 JLINK_ReadMem (0x10001560, 0x0004 Bytes, ...) -- CPU_ReadMem(64 bytes @ 0x10001540) -- Updating C cache (64 bytes @ 0x10001540) -- Read from C cache (4 bytes @ 0x10001560) - Data: 1D 1E 00 00  returns 0x00 (0000ms, 0695ms total)
T0BAC 059:029 JLINK_ReadMem (0x1000155C, 0x0004 Bytes, ...) -- Read from C cache (4 bytes @ 0x1000155C) - Data: 00 00 00 00  returns 0x00 (0000ms, 0695ms total)
T3324 063:820 JLINK_Step() -- CPU_ReadMem(64 bytes @ 0x00002200) -- Updating C cache (64 bytes @ 0x00002200) -- Read from C cache (2 bytes @ 0x00002204) -- CPU_ReadMem(4 bytes @ 0xE0001004) -- CPU_ReadMem(64 bytes @ 0x00002300) -- Updating C cache (64 bytes @ 0x00002300) -- Read from C cache (4 bytes @ 0x00002314) -- Simulated  returns 0x00 (0002ms, 0697ms total)
T3324 063:822 JLINK_ReadReg(R15 (PC))  returns 0x00002206 (0000ms, 0697ms total)
T3324 063:822 JLINK_ReadReg(XPSR)  returns 0x01000000 (0000ms, 0697ms total)
T3324 063:822 JLINK_SetBPEx(Addr = 0x00002204, Type = 0xFFFFFFF2)  returns 0x00000009 (0000ms, 0697ms total)
T3324 063:822 JLINK_Go() -- CPU_WriteMem(4 bytes @ 0xE0002000) -- CPU_ReadMem(4 bytes @ 0xE0001000) -- CPU_WriteMem(4 bytes @ 0xE0001004) (0004ms, 0701ms total)
T3324 063:928 JLINK_IsHalted()  returns TRUE (0002ms, 0703ms total)
T3324 063:930 JLINK_Halt()  returns 0x00 (0000ms, 0701ms total)
T3324 063:930 JLINK_IsHalted()  returns TRUE (0000ms, 0701ms total)
T3324 063:930 JLINK_IsHalted()  returns TRUE (0000ms, 0701ms total)
T3324 063:930 JLINK_IsHalted()  returns TRUE (0000ms, 0701ms total)
T3324 063:930 JLINK_ReadReg(R15 (PC))  returns 0x00002204 (0000ms, 0701ms total)
T3324 063:930 JLINK_ReadReg(XPSR)  returns 0x01000000 (0000ms, 0701ms total)
T3324 063:930 JLINK_ClrBPEx(BPHandle = 0x00000009)  returns 0x00 (0000ms, 0701ms total)
T3324 063:930 JLINK_ReadMemU32(0xE000ED30, 0x0001 Items, ...) -- CPU_ReadMem(4 bytes @ 0xE000ED30) - Data: 02 00 00 00  returns 0x01 (0000ms, 0701ms total)
T3324 063:930 JLINK_ReadMemU32(0xE0001028, 0x0001 Items, ...) -- CPU_ReadMem(4 bytes @ 0xE0001028) - Data: 00 00 00 00  returns 0x01 (0001ms, 0702ms total)
T3324 063:931 JLINK_ReadMemU32(0xE0001038, 0x0001 Items, ...) -- CPU_ReadMem(4 bytes @ 0xE0001038) - Data: 00 02 00 00  returns 0x01 (0000ms, 0702ms total)
T3324 063:931 JLINK_ReadMemU32(0xE0001048, 0x0001 Items, ...) -- CPU_ReadMem(4 bytes @ 0xE0001048) - Data: 00 00 00 00  returns 0x01 (0000ms, 0702ms total)
T3324 063:931 JLINK_ReadMemU32(0xE0001058, 0x0001 Items, ...) -- CPU_ReadMem(4 bytes @ 0xE0001058) - Data: 00 00 00 00  returns 0x01 (0001ms, 0703ms total)
T3324 063:932 JLINK_ReadReg(R0)  returns 0x10001EE4 (0000ms, 0703ms total)
T3324 063:932 JLINK_ReadReg(R1)  returns 0x10000078 (0000ms, 0703ms total)
T3324 063:932 JLINK_ReadReg(R2)  returns 0x00000000 (0000ms, 0703ms total)
T3324 063:932 JLINK_ReadReg(R3)  returns 0x00000000 (0000ms, 0703ms total)
T3324 063:932 JLINK_ReadReg(R4)  returns 0x00000000 (0000ms, 0703ms total)
T3324 063:932 JLINK_ReadReg(R5)  returns 0x05050505 (0000ms, 0703ms total)
T3324 063:932 JLINK_ReadReg(R6)  returns 0x06060606 (0000ms, 0703ms total)
T3324 063:932 JLINK_ReadReg(R7)  returns 0x07070707 (0000ms, 0703ms total)
T3324 063:932 JLINK_ReadReg(R8)  returns 0x08080808 (0000ms, 0703ms total)
T3324 063:932 JLINK_ReadReg(R9)  returns 0x09090909 (0000ms, 0703ms total)
T3324 063:932 JLINK_ReadReg(R10)  returns 0x10101010 (0000ms, 0703ms total)
T3324 063:932 JLINK_ReadReg(R11)  returns 0x11111111 (0000ms, 0703ms total)
T3324 063:932 JLINK_ReadReg(R12)  returns 0x12121212 (0000ms, 0703ms total)
T3324 063:932 JLINK_ReadReg(R13 (SP))  returns 0x1000155C (0000ms, 0703ms total)
T3324 063:932 JLINK_ReadReg(R14)  returns 0x00001E1D (0000ms, 0703ms total)
T3324 063:932 JLINK_ReadReg(R15 (PC))  returns 0x00002204 (0000ms, 0703ms total)
T3324 063:932 JLINK_ReadReg(XPSR)  returns 0x01000000 (0000ms, 0703ms total)
T3324 063:932 JLINK_ReadReg(MSP)  returns 0x10003470 (0000ms, 0703ms total)
T3324 063:932 JLINK_ReadReg(PSP)  returns 0x1000155C (0000ms, 0703ms total)
T3324 063:932 JLINK_ReadReg(CFBP)  returns 0x02000000 (0000ms, 0703ms total)
T0BAC 063:932 JLINK_ReadMem (0x10001560, 0x0004 Bytes, ...) -- CPU_ReadMem(64 bytes @ 0x10001540) -- Updating C cache (64 bytes @ 0x10001540) -- Read from C cache (4 bytes @ 0x10001560) - Data: 1D 1E 00 00  returns 0x00 (0001ms, 0704ms total)
T0BAC 063:933 JLINK_ReadMem (0x1000155C, 0x0004 Bytes, ...) -- Read from C cache (4 bytes @ 0x1000155C) - Data: 00 00 00 00  returns 0x00 (0000ms, 0704ms total)
T0BAC 065:840 JLINK_ReadMem (0x10001F28, 0x0004 Bytes, ...) -- CPU_ReadMem(64 bytes @ 0x10001F00) -- Updating C cache (64 bytes @ 0x10001F00) -- Read from C cache (4 bytes @ 0x10001F28) - Data: 00 00 00 00  returns 0x00 (0001ms, 0705ms total)
T0BAC 082:667 JLINK_ReadMem (0x10001AE2, 0x0002 Bytes, ...) -- CPU_ReadMem(64 bytes @ 0x10001AC0) -- Updating C cache (64 bytes @ 0x10001AC0) -- Read from C cache (2 bytes @ 0x10001AE2) - Data: 4C 1D  returns 0x00 (0001ms, 0706ms total)
T0BAC 082:991 JLINK_ReadMem (0x00001E78, 0x003C Bytes, ...) -- CPU_ReadMem(128 bytes @ 0x00001E40) -- Updating C cache (128 bytes @ 0x00001E40) -- Read from C cache (60 bytes @ 0x00001E78) - Data: 85 48 40 8A 84 49 C8 81 81 48 40 78 C8 21 48 43 ...  returns 0x00 (0001ms, 0707ms total)
T3324 088:935 JLINK_Step() -- CPU_ReadMem(64 bytes @ 0x00002200) -- Updating C cache (64 bytes @ 0x00002200) -- Read from C cache (2 bytes @ 0x00002204) -- CPU_ReadMem(4 bytes @ 0xE0001004) -- CPU_ReadMem(64 bytes @ 0x00002300) -- Updating C cache (64 bytes @ 0x00002300) -- Read from C cache (4 bytes @ 0x00002314) -- Simulated  returns 0x00 (0002ms, 0709ms total)
T3324 088:937 JLINK_ReadReg(R15 (PC))  returns 0x00002206 (0000ms, 0709ms total)
T3324 088:937 JLINK_ReadReg(XPSR)  returns 0x01000000 (0000ms, 0709ms total)
T3324 088:937 JLINK_SetBPEx(Addr = 0x00002204, Type = 0xFFFFFFF2)  returns 0x0000000A (0000ms, 0709ms total)
T3324 088:937 JLINK_Go() -- CPU_WriteMem(4 bytes @ 0xE0002000) -- CPU_ReadMem(4 bytes @ 0xE0001000) -- CPU_WriteMem(4 bytes @ 0xE0001004) (0002ms, 0711ms total)
T3324 089:040 JLINK_IsHalted()  returns TRUE (0002ms, 0713ms total)
T3324 089:042 JLINK_Halt()  returns 0x00 (0000ms, 0711ms total)
T3324 089:042 JLINK_IsHalted()  returns TRUE (0000ms, 0711ms total)
T3324 089:042 JLINK_IsHalted()  returns TRUE (0000ms, 0711ms total)
